
T17D8 000:294 SEGGER J-Link V5.12f Log File (0000ms, 0272ms total)
T17D8 000:294 DLL Compiled: May 17 2016 16:03:35 (0000ms, 0272ms total)
T17D8 000:294 Logging started @ 2016-11-21 08:25 (0000ms, 0272ms total)
T17D8 000:294 JLINK_SetWarnOutHandler(...) (0000ms, 0272ms total)
T17D8 000:294 JLINK_OpenEx(...)
Firmware: J-Link ARM V8 compiled Jan 31 2018 18:34:52
Hardware: V8.00
S/N: 20080643
Feature(s): RDI,FlashDL,FlashBP,JFlash,GDBFull  returns O.K. (0269ms, 0541ms total)
T17D8 000:563 JLINK_SetErrorOutHandler(...) (0000ms, 0541ms total)
T17D8 000:563 JLINK_ExecCommand("ProjectFile = "E:\MidFreqCurer\firmware\rt-thread-2.1.0\bsp\stm32f10x\JLinkSettings.ini"", ...)  returns 0x00 (0000ms, 0541ms total)
T17D8 000:563 JLINK_ExecCommand("Device = STM32F103ZE", ...)Device "STM32F103ZE" selected.  returns 0x00 (0002ms, 0543ms total)
T17D8 000:565 JLINK_ExecCommand("DisableConnectionTimeout", ...)  returns 0x01 (0000ms, 0543ms total)
T17D8 000:565 JLINK_GetHardwareVersion()  returns 0x13880 (0000ms, 0543ms total)
T17D8 000:565 JLINK_GetDLLVersion()  returns 51206 (0000ms, 0543ms total)
T17D8 000:565 JLINK_GetFirmwareString(...) (0000ms, 0543ms total)
T17D8 000:567 JLINK_GetDLLVersion()  returns 51206 (0000ms, 0543ms total)
T17D8 000:567 JLINK_GetCompileDateTime() (0000ms, 0543ms total)
T17D8 000:567 JLINK_GetFirmwareString(...) (0000ms, 0543ms total)
T17D8 000:567 JLINK_GetHardwareVersion()  returns 0x13880 (0000ms, 0543ms total)
T17D8 000:568 JLINK_TIF_Select(JLINKARM_TIF_SWD)  returns 0x00 (0004ms, 0547ms total)
T17D8 000:572 JLINK_SetSpeed(5000) (0001ms, 0548ms total)
T17D8 000:573 JLINK_GetId() >0x108 TIF>Found SWD-DP with ID 0x1BA01477 >0x0D TIF> >0x28 TIF> >0x0D TIF> >0x28 TIF> >0x0D TIF> >0x28 TIF> >0x0D TIF> >0x28 TIF> >0x0D TIF> >0x21 TIF> >0x0D TIF> >0x28 TIF> >0x0D TIF> >0x28 TIF> >0x0D TIF> >0x28 TIF> >0x0D TIF> >0x21 TIF> >0x0D TIF> >0x21 TIF> >0x0D TIF> >0x28 TIF> >0x0D TIF> >0x21 TIF> >0x0D TIF> >0x21 TIF> >0x0D TIF> >0x28 TIF> >0x0D TIF> >0x21 TIF> >0x0D TIF> >0x21 TIF> >0x0D TIF> >0x28 TIF> >0x0D TIF> >0x21 TIF> >0x0D TIF> >0x21 TIF> >0x0D TIF>
 >0x28 TIF> >0x0D TIF> >0x21 TIF> >0x0D TIF> >0x21 TIF> >0x0D TIF> >0x28 TIF> >0x0D TIF> >0x21 TIF> >0x0D TIF> >0x21 TIF> >0x108 TIF>Found SWD-DP with ID 0x1BA01477 >0x0D TIF> >0x28 TIF> >0x0D TIF> >0x28 TIF> >0x0D TIF> >0x28 TIF> >0x0D TIF> >0x28 TIF> >0x0D TIF> >0x21 TIF> >0x0D TIF> >0x28 TIF> >0x0D TIF> >0x28 TIF> >0x0D TIF> >0x21 TIF> >0x0D TIF> >0x21 TIF> >0x0D TIF> >0x21 TIF> >0x0D TIF> >0x28 TIF> >0x0D TIF> >0x28 TIF> >0x0D TIF> >0x28 TIF> >0x0D TIF> >0x21 TIF> >0x0D TIF> >0x21 TIF> >0x0D TIF>
 >0x28 TIF> >0x0D TIF> >0x21 TIF> >0x0D TIF> >0x21 TIF>Found Cortex-M3 r1p1, Little endian. >0x0D TIF> >0x28 TIF> -- CPU_ReadMem(4 bytes @ 0xE000EDF0) -- CPU_ReadMem(4 bytes @ 0xE0002000)FPUnit: 6 code (BP) slots and 2 literal slots -- CPU_ReadMem(4 bytes @ 0xE000EDFC) -- CPU_ReadMem(4 bytes @ 0xE0001000) -- CPU_WriteMem(4 bytes @ 0xE0001000) -- CPU_ReadMem(4 bytes @ 0xE000ED88) -- CPU_WriteMem(4 bytes @ 0xE000ED88) -- CPU_ReadMem(4 bytes @ 0xE000ED88) -- CPU_WriteMem(4 bytes @ 0xE000ED88)
CoreSight components:ROMTbl 0 @ E00FF000 -- CPU_ReadMem(16 bytes @ 0xE00FF000) -- CPU_ReadMem(16 bytes @ 0xE000EFF0) -- CPU_ReadMem(16 bytes @ 0xE000EFE0)ROMTbl 0 [0]: FFF0F000, CID: B105E00D, PID: 001BB000 SCS -- CPU_ReadMem(16 bytes @ 0xE0001FF0) -- CPU_ReadMem(16 bytes @ 0xE0001FE0)ROMTbl 0 [1]: FFF02000, CID: B105E00D, PID: 001BB002 DWT -- CPU_ReadMem(16 bytes @ 0xE0002FF0) -- CPU_ReadMem(16 bytes @ 0xE0002FE0)ROMTbl 0 [2]: FFF03000, CID: B105E00D, PID: 000BB003 FPB
 -- CPU_ReadMem(16 bytes @ 0xE0000FF0) -- CPU_ReadMem(16 bytes @ 0xE0000FE0)ROMTbl 0 [3]: FFF01000, CID: B105E00D, PID: 001BB001 ITM -- CPU_ReadMem(16 bytes @ 0xE00FF010) -- CPU_ReadMem(16 bytes @ 0xE0040FF0) -- CPU_ReadMem(16 bytes @ 0xE0040FE0)ROMTbl 0 [4]: FFF41000, CID: B105900D, PID: 001BB923 TPIU-Lite -- CPU_ReadMem(16 bytes @ 0xE0041FF0) -- CPU_ReadMem(16 bytes @ 0xE0041FE0)ROMTbl 0 [5]: FFF42000, CID: B105900D, PID: 101BB924 ETM-M3 >0x0D TIF> >0x21 TIF>  returns 0x1BA01477
 (0122ms, 0670ms total)
T17D8 000:695 JLINK_GetDLLVersion()  returns 51206 (0000ms, 0670ms total)
T17D8 000:695 JLINK_CORE_GetFound()  returns 0x30000FF (0000ms, 0670ms total)
T17D8 000:695 JLINK_GetDebugInfo(0x100) -- Value=0xE00FF000  returns 0x00 (0000ms, 0670ms total)
T17D8 000:696 JLINK_ReadMem (0xE00FF000, 0x0020 Bytes, ...) -- CPU is running -- CPU_ReadMem(32 bytes @ 0xE00FF000) - Data: 03 F0 F0 FF 03 20 F0 FF 03 30 F0 FF 03 10 F0 FF ...  returns 0x00 (0000ms, 0670ms total)
T17D8 000:696 JLINK_ReadMem (0xE000EFF0, 0x0010 Bytes, ...) -- CPU is running -- CPU_ReadMem(16 bytes @ 0xE000EFF0) - Data: 0D 00 00 00 E0 00 00 00 05 00 00 00 B1 00 00 00  returns 0x00 (0001ms, 0671ms total)
T17D8 000:697 JLINK_ReadMem (0xE000EFD0, 0x0020 Bytes, ...) -- CPU is running -- CPU_ReadMem(32 bytes @ 0xE000EFD0) - Data: 04 00 00 00 00 00 00 00 00 00 00 00 00 00 00 00 ...  returns 0x00 (0001ms, 0672ms total)
T17D8 000:698 JLINK_ReadMem (0xE0001FF0, 0x0010 Bytes, ...) -- CPU is running -- CPU_ReadMem(16 bytes @ 0xE0001FF0) - Data: 0D 00 00 00 E0 00 00 00 05 00 00 00 B1 00 00 00  returns 0x00 (0001ms, 0673ms total)
T17D8 000:699 JLINK_ReadMem (0xE0001FD0, 0x0020 Bytes, ...) -- CPU is running -- CPU_ReadMem(32 bytes @ 0xE0001FD0) - Data: 04 00 00 00 00 00 00 00 00 00 00 00 00 00 00 00 ...  returns 0x00 (0001ms, 0674ms total)
T17D8 000:700 JLINK_ReadMem (0xE0002FF0, 0x0010 Bytes, ...) -- CPU is running -- CPU_ReadMem(16 bytes @ 0xE0002FF0) - Data: 0D 00 00 00 E0 00 00 00 05 00 00 00 B1 00 00 00  returns 0x00 (0001ms, 0675ms total)
T17D8 000:701 JLINK_ReadMem (0xE0002FD0, 0x0020 Bytes, ...) -- CPU is running -- CPU_ReadMem(32 bytes @ 0xE0002FD0) - Data: 04 00 00 00 00 00 00 00 00 00 00 00 00 00 00 00 ...  returns 0x00 (0001ms, 0676ms total)
T17D8 000:702 JLINK_ReadMem (0xE0000FF0, 0x0010 Bytes, ...) -- CPU is running -- CPU_ReadMem(16 bytes @ 0xE0000FF0) - Data: 0D 00 00 00 E0 00 00 00 05 00 00 00 B1 00 00 00  returns 0x00 (0001ms, 0677ms total)
T17D8 000:703 JLINK_ReadMem (0xE0000FD0, 0x0020 Bytes, ...) -- CPU is running -- CPU_ReadMem(32 bytes @ 0xE0000FD0) - Data: 04 00 00 00 00 00 00 00 00 00 00 00 00 00 00 00 ...  returns 0x00 (0001ms, 0678ms total)
T17D8 000:704 JLINK_ReadMem (0xE0040FF0, 0x0010 Bytes, ...) -- CPU is running -- CPU_ReadMem(16 bytes @ 0xE0040FF0) - Data: 0D 00 00 00 90 00 00 00 05 00 00 00 B1 00 00 00  returns 0x00 (0001ms, 0679ms total)
T17D8 000:705 JLINK_ReadMem (0xE0040FD0, 0x0020 Bytes, ...) -- CPU is running -- CPU_ReadMem(32 bytes @ 0xE0040FD0) - Data: 04 00 00 00 00 00 00 00 00 00 00 00 00 00 00 00 ...  returns 0x00 (0001ms, 0680ms total)
T17D8 000:706 JLINK_ReadMem (0xE0041FF0, 0x0010 Bytes, ...) -- CPU is running -- CPU_ReadMem(16 bytes @ 0xE0041FF0) - Data: 0D 00 00 00 90 00 00 00 05 00 00 00 B1 00 00 00  returns 0x00 (0001ms, 0681ms total)
T17D8 000:707 JLINK_ReadMem (0xE0041FD0, 0x0020 Bytes, ...) -- CPU is running -- CPU_ReadMem(32 bytes @ 0xE0041FD0) - Data: 04 00 00 00 00 00 00 00 00 00 00 00 00 00 00 00 ...  returns 0x00 (0001ms, 0682ms total)
T17D8 000:708 JLINK_ReadMemU32(0xE000ED00, 0x0001 Items, ...) -- CPU is running -- CPU_ReadMem(4 bytes @ 0xE000ED00) - Data: 31 C2 1F 41  returns 0x01 (0001ms, 0683ms total)
T17D8 000:709 JLINK_SetResetType(JLINKARM_RESET_TYPE_NORMAL)  returns JLINKARM_RESET_TYPE_NORMAL (0000ms, 0683ms total)
T17D8 000:709 JLINK_Reset() -- CPU_WriteMem(4 bytes @ 0xE0002000) -- CPU_ReadMem(4 bytes @ 0xE000EDFC) -- CPU_WriteMem(4 bytes @ 0xE000EDFC) -- CPU_ReadMem(4 bytes @ 0xE0001000) (0018ms, 0701ms total)
T17D8 000:727 JLINK_ReadReg(R15 (PC))  returns 0x08002CD0 (0000ms, 0701ms total)
T17D8 000:727 JLINK_ReadReg(XPSR)  returns 0x01000000 (0000ms, 0701ms total)
T17D8 000:727 JLINK_Halt()  returns 0x00 (0000ms, 0701ms total)
T17D8 000:727 JLINK_IsHalted()  returns TRUE (0000ms, 0701ms total)
T17D8 000:727 JLINK_ReadMemU32(0xE000EDF0, 0x0001 Items, ...) -- CPU_ReadMem(4 bytes @ 0xE000EDF0) - Data: 03 00 03 00  returns 0x01 (0001ms, 0702ms total)
T17D8 000:728 JLINK_WriteU32(0xE000EDF0, 0xA05F0003) -- CPU_WriteMem(4 bytes @ 0xE000EDF0)  returns 0x00 (0001ms, 0703ms total)
T17D8 000:729 JLINK_WriteU32(0xE000EDFC, 0x01000000) -- CPU_WriteMem(4 bytes @ 0xE000EDFC)  returns 0x00 (0001ms, 0704ms total)
T17D8 000:730 JLINK_GetHWStatus(...)  returns 0x00 (0001ms, 0705ms total)
T17D8 000:731 JLINK_GetNumBPUnits(Type = 0xFFFFFF00)  returns 0x06 (0000ms, 0705ms total)
T17D8 000:731 JLINK_GetNumBPUnits(Type = 0xF0)  returns 0x2000 (0000ms, 0705ms total)
T17D8 000:731 JLINK_GetNumWPUnits()  returns 0x04 (0000ms, 0705ms total)
T17D8 000:732 JLINK_GetSpeed()  returns 0xFA0 (0000ms, 0705ms total)
T17D8 000:732 JLINK_ReadMemU32(0xE000E004, 0x0001 Items, ...) -- CPU_ReadMem(4 bytes @ 0xE000E004) - Data: 01 00 00 00  returns 0x01 (0001ms, 0706ms total)
T17D8 000:733 JLINK_ReadMemU32(0xE000E004, 0x0001 Items, ...) -- CPU_ReadMem(4 bytes @ 0xE000E004) - Data: 01 00 00 00  returns 0x01 (0001ms, 0707ms total)
T17D8 000:734 JLINK_WriteMem(0xE0001000, 0x001C Bytes, ...) - Data: 01 00 00 00 00 00 00 00 00 00 00 00 00 00 00 00 ... -- CPU_WriteMem(28 bytes @ 0xE0001000)  returns 0x1C (0001ms, 0708ms total)
T17D8 000:735 JLINK_ReadMem (0xE0001000, 0x001C Bytes, ...) -- CPU_ReadMem(28 bytes @ 0xE0001000) - Data: 01 00 00 40 00 00 00 00 00 00 00 00 00 00 00 00 ...  returns 0x00 (0001ms, 0709ms total)
T17D8 000:736 JLINK_ReadReg(R15 (PC))  returns 0x08002CD0 (0000ms, 0709ms total)
T17D8 000:736 JLINK_ReadReg(XPSR)  returns 0x01000000 (0000ms, 0709ms total)
T17D8 000:813 JLINK_SetResetType(JLINKARM_RESET_TYPE_NORMAL)  returns JLINKARM_RESET_TYPE_NORMAL (0000ms, 0709ms total)
T17D8 000:813 JLINK_Reset() -- CPU_WriteMem(4 bytes @ 0xE0002000) -- CPU_ReadMem(4 bytes @ 0xE000EDFC) -- CPU_WriteMem(4 bytes @ 0xE000EDFC) -- CPU_ReadMem(4 bytes @ 0xE0001000) (0016ms, 0725ms total)
T17D8 000:829 JLINK_ReadReg(R15 (PC))  returns 0x08002CD0 (0000ms, 0725ms total)
T17D8 000:829 JLINK_ReadReg(XPSR)  returns 0x01000000 (0000ms, 0725ms total)
T17D8 000:829 JLINK_ReadMemU32(0xE0001004, 0x0001 Items, ...) -- CPU_ReadMem(4 bytes @ 0xE0001004) - Data: 00 00 00 00  returns 0x01 (0001ms, 0726ms total)
T17D8 000:903 JLINK_ReadMem (0x08002BD0, 0x0030 Bytes, ...) -- CPU_ReadMem(64 bytes @ 0x08002BC0) -- Updating C cache (64 bytes @ 0x08002BC0) -- Read from C cache (48 bytes @ 0x08002BD0) - Data: 00 D1 03 E0 9F 21 2C A0 FD F7 00 FB 3A 48 85 42 ...  returns 0x00 (0001ms, 0727ms total)
T17D8 000:904 JLINK_ReadMem (0x08002C00, 0x000C Bytes, ...) -- CPU_ReadMem(64 bytes @ 0x08002C00) -- Updating C cache (64 bytes @ 0x08002C00) -- Read from C cache (12 bytes @ 0x08002C00) - Data: 0D 46 10 2C 03 D0 04 2C 01 D0 02 2C  returns 0x00 (0002ms, 0729ms total)
T17D8 000:906 JLINK_ReadMem (0x08002C0C, 0x003C Bytes, ...) -- CPU_ReadMem(64 bytes @ 0x08002C40) -- Updating C cache (64 bytes @ 0x08002C40) -- Read from C cache (60 bytes @ 0x08002C0C) - Data: 00 D1 03 E0 B2 21 1D A0 FD F7 E2 FA 0D B1 01 2D ...  returns 0x00 (0001ms, 0730ms total)
T17D8 000:907 JLINK_ReadMem (0x08002C48, 0x003C Bytes, ...) -- CPU_ReadMem(64 bytes @ 0x08002C80) -- Updating C cache (64 bytes @ 0x08002C80) -- Read from C cache (60 bytes @ 0x08002C48) - Data: 70 BD 10 B5 04 46 04 2C 01 D0 60 1D 00 B9 03 E0 ...  returns 0x00 (0001ms, 0731ms total)
T17D8 000:908 JLINK_ReadMem (0x08002C84, 0x003C Bytes, ...) -- Read from C cache (60 bytes @ 0x08002C84) - Data: 08 61 10 BD 4C 69 62 72 61 72 69 65 73 5C 53 54 ...  returns 0x00 (0000ms, 0731ms total)
T17D8 000:908 JLINK_ReadMem (0x08002CCE, 0x0002 Bytes, ...) -- CPU_ReadMem(64 bytes @ 0x08002CC0) -- Updating C cache (64 bytes @ 0x08002CC0) -- Read from C cache (2 bytes @ 0x08002CCE) - Data: FF 1F  returns 0x00 (0001ms, 0732ms total)
T17D8 000:909 JLINK_ReadMem (0x08002CD0, 0x003C Bytes, ...) -- CPU_ReadMem(64 bytes @ 0x08002D00) -- Updating C cache (64 bytes @ 0x08002D00) -- Read from C cache (60 bytes @ 0x08002CD0) - Data: 06 48 80 47 06 48 00 47 FE E7 FE E7 FE E7 FE E7 ...  returns 0x00 (0001ms, 0733ms total)
T17C8 001:574 JLINK_SetBPEx(Addr = 0x08000226, Type = 0xFFFFFFF2)  returns 0x00000001 (0000ms, 0733ms total)
T17C8 001:574 JLINK_SetBPEx(Addr = 0x0800507A, Type = 0xFFFFFFF2)  returns 0x00000002 (0000ms, 0733ms total)
T17C8 001:574 JLINK_Go() -- CPU_WriteMem(4 bytes @ 0xE0002000) -- CPU_WriteMem(4 bytes @ 0xE0002000) -- CPU_ReadMem(4 bytes @ 0xE0001000) -- CPU_WriteMem(4 bytes @ 0xE0002008) -- CPU_WriteMem(4 bytes @ 0xE000200C) -- CPU_WriteMem(4 bytes @ 0xE0002010) -- CPU_WriteMem(4 bytes @ 0xE0002014) -- CPU_WriteMem(4 bytes @ 0xE0002018) -- CPU_WriteMem(4 bytes @ 0xE000201C) -- CPU_WriteMem(4 bytes @ 0xE0001004) (0012ms, 0745ms total)
T17C8 001:686 JLINK_IsHalted()  returns TRUE (0004ms, 0749ms total)
T17C8 001:690 JLINK_Halt()  returns 0x00 (0000ms, 0745ms total)
T17C8 001:690 JLINK_IsHalted()  returns TRUE (0000ms, 0745ms total)
T17C8 001:690 JLINK_IsHalted()  returns TRUE (0000ms, 0745ms total)
T17C8 001:690 JLINK_IsHalted()  returns TRUE (0000ms, 0745ms total)
T17C8 001:690 JLINK_ReadReg(R15 (PC))  returns 0x08000226 (0000ms, 0745ms total)
T17C8 001:690 JLINK_ReadReg(XPSR)  returns 0x61000000 (0000ms, 0745ms total)
T17C8 001:690 JLINK_ClrBPEx(BPHandle = 0x00000001)  returns 0x00 (0000ms, 0745ms total)
T17C8 001:690 JLINK_ClrBPEx(BPHandle = 0x00000002)  returns 0x00 (0000ms, 0745ms total)
T17C8 001:690 JLINK_ReadMemU32(0xE000ED30, 0x0001 Items, ...) -- CPU_ReadMem(4 bytes @ 0xE000ED30) - Data: 03 00 00 00  returns 0x01 (0001ms, 0746ms total)
T17C8 001:691 JLINK_ReadMemU32(0xE0001028, 0x0001 Items, ...) -- CPU_ReadMem(4 bytes @ 0xE0001028) - Data: 00 00 00 00  returns 0x01 (0001ms, 0747ms total)
T17C8 001:692 JLINK_ReadMemU32(0xE0001038, 0x0001 Items, ...) -- CPU_ReadMem(4 bytes @ 0xE0001038) - Data: 00 02 00 00  returns 0x01 (0001ms, 0748ms total)
T17C8 001:693 JLINK_ReadMemU32(0xE0001048, 0x0001 Items, ...) -- CPU_ReadMem(4 bytes @ 0xE0001048) - Data: 00 00 00 00  returns 0x01 (0001ms, 0749ms total)
T17C8 001:694 JLINK_ReadMemU32(0xE0001058, 0x0001 Items, ...) -- CPU_ReadMem(4 bytes @ 0xE0001058) - Data: 00 00 00 00  returns 0x01 (0001ms, 0750ms total)
T17C8 001:695 JLINK_ReadReg(R0)  returns 0x08000227 (0000ms, 0750ms total)
T17C8 001:695 JLINK_ReadReg(R1)  returns 0x200018F8 (0000ms, 0750ms total)
T17C8 001:695 JLINK_ReadReg(R2)  returns 0x00000000 (0000ms, 0750ms total)
T17C8 001:695 JLINK_ReadReg(R3)  returns 0x0800D1D9 (0000ms, 0750ms total)
T17C8 001:695 JLINK_ReadReg(R4)  returns 0x0800E23C (0000ms, 0750ms total)
T17C8 001:695 JLINK_ReadReg(R5)  returns 0x0800E23C (0000ms, 0750ms total)
T17C8 001:695 JLINK_ReadReg(R6)  returns 0xDEADBEEF (0000ms, 0750ms total)
T17C8 001:695 JLINK_ReadReg(R7)  returns 0xDEADBEEF (0000ms, 0750ms total)
T17C8 001:695 JLINK_ReadReg(R8)  returns 0xDEADBEEF (0000ms, 0750ms total)
T17C8 001:695 JLINK_ReadReg(R9)  returns 0xDEADBEEF (0000ms, 0750ms total)
T17C8 001:695 JLINK_ReadReg(R10)  returns 0xDEADBEEF (0000ms, 0750ms total)
T17C8 001:695 JLINK_ReadReg(R11)  returns 0xDEADBEEF (0000ms, 0750ms total)
T17C8 001:695 JLINK_ReadReg(R12)  returns 0x00000000 (0000ms, 0750ms total)
T17C8 001:695 JLINK_ReadReg(R13 (SP))  returns 0x200018F8 (0000ms, 0750ms total)
T17C8 001:695 JLINK_ReadReg(R14)  returns 0x0800D0A1 (0000ms, 0750ms total)
T17C8 001:695 JLINK_ReadReg(R15 (PC))  returns 0x08000226 (0000ms, 0750ms total)
T17C8 001:695 JLINK_ReadReg(XPSR)  returns 0x61000000 (0000ms, 0750ms total)
T17C8 001:695 JLINK_ReadReg(MSP)  returns 0x200018F8 (0000ms, 0750ms total)
T17C8 001:695 JLINK_ReadReg(PSP)  returns 0x200006D0 (0000ms, 0750ms total)
T17C8 001:695 JLINK_ReadReg(CFBP)  returns 0x00000000 (0000ms, 0750ms total)
T17D8 001:698 JLINK_ReadMemU32(0xE0001004, 0x0001 Items, ...) -- CPU_ReadMem(4 bytes @ 0xE0001004) - Data: 27 5F 00 00  returns 0x01 (0001ms, 0751ms total)
T17D8 001:703 JLINK_ReadMem (0x08000224, 0x003C Bytes, ...) -- CPU_ReadMem(128 bytes @ 0x08000200) -- Updating C cache (128 bytes @ 0x08000200) -- Read from C cache (60 bytes @ 0x08000224) - Data: 10 BD 10 B5 06 F0 56 FF FF F7 E5 FF 00 20 10 BD ...  returns 0x00 (0001ms, 0752ms total)
T17C8 004:429 JLINK_SetBPEx(Addr = 0x0800507A, Type = 0xFFFFFFF2)  returns 0x00000003 (0000ms, 0752ms total)
T17C8 004:429 JLINK_Go() -- CPU_WriteMem(4 bytes @ 0xE0002000) -- CPU_ReadMem(4 bytes @ 0xE0001000) -- CPU_WriteMem(4 bytes @ 0xE0002008) -- CPU_WriteMem(4 bytes @ 0xE000200C) (0006ms, 0758ms total)
T17C8 004:535 JLINK_IsHalted()  returns TRUE (0004ms, 0762ms total)
T17C8 004:539 JLINK_Halt()  returns 0x00 (0000ms, 0758ms total)
T17C8 004:539 JLINK_IsHalted()  returns TRUE (0000ms, 0758ms total)
T17C8 004:539 JLINK_IsHalted()  returns TRUE (0000ms, 0758ms total)
T17C8 004:539 JLINK_IsHalted()  returns TRUE (0000ms, 0758ms total)
T17C8 004:539 JLINK_ReadReg(R15 (PC))  returns 0x0800507A (0000ms, 0758ms total)
T17C8 004:539 JLINK_ReadReg(XPSR)  returns 0x61000000 (0000ms, 0758ms total)
T17C8 004:539 JLINK_ClrBPEx(BPHandle = 0x00000003)  returns 0x00 (0000ms, 0758ms total)
T17C8 004:539 JLINK_ReadMemU32(0xE000ED30, 0x0001 Items, ...) -- CPU_ReadMem(4 bytes @ 0xE000ED30) - Data: 03 00 00 00  returns 0x01 (0001ms, 0759ms total)
T17C8 004:540 JLINK_ReadMemU32(0xE0001028, 0x0001 Items, ...) -- CPU_ReadMem(4 bytes @ 0xE0001028) - Data: 00 00 00 00  returns 0x01 (0001ms, 0760ms total)
T17C8 004:541 JLINK_ReadMemU32(0xE0001038, 0x0001 Items, ...) -- CPU_ReadMem(4 bytes @ 0xE0001038) - Data: 00 02 00 00  returns 0x01 (0001ms, 0761ms total)
T17C8 004:542 JLINK_ReadMemU32(0xE0001048, 0x0001 Items, ...) -- CPU_ReadMem(4 bytes @ 0xE0001048) - Data: 00 00 00 00  returns 0x01 (0001ms, 0762ms total)
T17C8 004:543 JLINK_ReadMemU32(0xE0001058, 0x0001 Items, ...) -- CPU_ReadMem(4 bytes @ 0xE0001058) - Data: 00 00 00 00  returns 0x01 (0001ms, 0763ms total)
T17C8 004:544 JLINK_ReadReg(R0)  returns 0x00000000 (0000ms, 0763ms total)
T17C8 004:544 JLINK_ReadReg(R1)  returns 0x0000000A (0000ms, 0763ms total)
T17C8 004:544 JLINK_ReadReg(R2)  returns 0x0800054B (0000ms, 0763ms total)
T17C8 004:544 JLINK_ReadReg(R3)  returns 0x00000000 (0000ms, 0763ms total)
T17C8 004:544 JLINK_ReadReg(R4)  returns 0x0800E23C (0000ms, 0763ms total)
T17C8 004:544 JLINK_ReadReg(R5)  returns 0x0800E23C (0000ms, 0763ms total)
T17C8 004:544 JLINK_ReadReg(R6)  returns 0xDEADBEEF (0000ms, 0763ms total)
T17C8 004:544 JLINK_ReadReg(R7)  returns 0xDEADBEEF (0000ms, 0763ms total)
T17C8 004:544 JLINK_ReadReg(R8)  returns 0xDEADBEEF (0000ms, 0763ms total)
T17C8 004:544 JLINK_ReadReg(R9)  returns 0xDEADBEEF (0000ms, 0763ms total)
T17C8 004:544 JLINK_ReadReg(R10)  returns 0xDEADBEEF (0000ms, 0763ms total)
T17C8 004:544 JLINK_ReadReg(R11)  returns 0xDEADBEEF (0000ms, 0763ms total)
T17C8 004:544 JLINK_ReadReg(R12)  returns 0x080074B9 (0000ms, 0763ms total)
T17C8 004:544 JLINK_ReadReg(R13 (SP))  returns 0x200018E0 (0000ms, 0763ms total)
T17C8 004:544 JLINK_ReadReg(R14)  returns 0x08007813 (0000ms, 0763ms total)
T17C8 004:544 JLINK_ReadReg(R15 (PC))  returns 0x0800507A (0000ms, 0763ms total)
T17C8 004:544 JLINK_ReadReg(XPSR)  returns 0x61000000 (0000ms, 0763ms total)
T17C8 004:544 JLINK_ReadReg(MSP)  returns 0x200018E0 (0000ms, 0763ms total)
T17C8 004:544 JLINK_ReadReg(PSP)  returns 0x200006D0 (0000ms, 0763ms total)
T17C8 004:544 JLINK_ReadReg(CFBP)  returns 0x00000001 (0000ms, 0763ms total)
T17D8 004:544 JLINK_ReadMem (0x200018E4, 0x0004 Bytes, ...) -- CPU_ReadMem(64 bytes @ 0x200018C0) -- Updating C cache (64 bytes @ 0x200018C0) -- Read from C cache (4 bytes @ 0x200018E4) - Data: 05 02 00 08  returns 0x00 (0002ms, 0765ms total)
T17D8 004:546 JLINK_ReadMem (0x200018EC, 0x0004 Bytes, ...) -- Read from C cache (4 bytes @ 0x200018EC) - Data: 31 02 00 08  returns 0x00 (0000ms, 0765ms total)
T17D8 004:546 JLINK_ReadMem (0x200018E8, 0x0004 Bytes, ...) -- Read from C cache (4 bytes @ 0x200018E8) - Data: 3C E2 00 08  returns 0x00 (0000ms, 0765ms total)
T17D8 004:546 JLINK_ReadMem (0x200018F4, 0x0004 Bytes, ...) -- Read from C cache (4 bytes @ 0x200018F4) - Data: A1 D0 00 08  returns 0x00 (0000ms, 0765ms total)
T17D8 004:549 JLINK_ReadMemU32(0xE0001004, 0x0001 Items, ...) -- CPU_ReadMem(4 bytes @ 0xE0001004) - Data: 2C 83 01 00  returns 0x01 (0001ms, 0766ms total)
T17D8 004:554 JLINK_ReadMem (0x08005074, 0x003C Bytes, ...) -- CPU_ReadMem(128 bytes @ 0x08005040) -- Updating C cache (128 bytes @ 0x08005040) -- Read from C cache (60 bytes @ 0x08005074) - Data: 67 A0 FF F7 CC FF 69 A0 FF F7 C9 FF 70 A0 00 23 ...  returns 0x00 (0001ms, 0768ms total)
T17D8 025:665 JLINK_ReadMem (0x40013800, 0x0018 Bytes, ...) -- CPU_ReadMem(24 bytes @ 0x40013800) - Data: C0 00 00 00 00 00 00 00 71 02 00 00 0C 20 00 00 ...  returns 0x00 (0002ms, 0770ms total)
T17D8 025:667 JLINK_ReadMem (0x40013818, 0x0004 Bytes, ...) -- CPU_ReadMem(4 bytes @ 0x40013818) - Data: 00 00 00 00  returns 0x00 (0001ms, 0771ms total)
T17C8 036:789 JLINK_Step() -- Read from C cache (2 bytes @ 0x0800507A) -- CPU_ReadMem(4 bytes @ 0xE000ED18) -- CPU_WriteMem(4 bytes @ 0xE000ED18) -- CPU_ReadMem(4 bytes @ 0xE000ED18) -- CPU_WriteMem(4 bytes @ 0xE000ED18) -- Simulated  returns 0x00 (0006ms, 0777ms total)
T17C8 036:795 JLINK_ReadReg(R15 (PC))  returns 0x0800507C (0000ms, 0777ms total)
T17C8 036:795 JLINK_ReadReg(XPSR)  returns 0x61000000 (0000ms, 0777ms total)
T17C8 036:795 JLINK_Step() -- Read from C cache (2 bytes @ 0x0800507C) -- Read from C cache (2 bytes @ 0x0800507E) -- Simulated  returns 0x00 (0000ms, 0777ms total)
T17C8 036:795 JLINK_ReadReg(R15 (PC))  returns 0x08005012 (0000ms, 0777ms total)
T17C8 036:795 JLINK_ReadReg(XPSR)  returns 0x61000000 (0000ms, 0777ms total)
T17C8 036:795 JLINK_ReadReg(R0)  returns 0x08005220 (0000ms, 0777ms total)
T17C8 036:795 JLINK_ReadReg(R1)  returns 0x0000000A (0000ms, 0777ms total)
T17C8 036:795 JLINK_ReadReg(R2)  returns 0x0800054B (0000ms, 0777ms total)
T17C8 036:795 JLINK_ReadReg(R3)  returns 0x00000000 (0000ms, 0777ms total)
T17C8 036:795 JLINK_ReadReg(R4)  returns 0x0800E23C (0000ms, 0777ms total)
T17C8 036:795 JLINK_ReadReg(R5)  returns 0x0800E23C (0000ms, 0777ms total)
T17C8 036:795 JLINK_ReadReg(R6)  returns 0xDEADBEEF (0000ms, 0777ms total)
T17C8 036:795 JLINK_ReadReg(R7)  returns 0xDEADBEEF (0000ms, 0777ms total)
T17C8 036:795 JLINK_ReadReg(R8)  returns 0xDEADBEEF (0000ms, 0777ms total)
T17C8 036:795 JLINK_ReadReg(R9)  returns 0xDEADBEEF (0000ms, 0777ms total)
T17C8 036:795 JLINK_ReadReg(R10)  returns 0xDEADBEEF (0000ms, 0777ms total)
T17C8 036:795 JLINK_ReadReg(R11)  returns 0xDEADBEEF (0000ms, 0777ms total)
T17C8 036:795 JLINK_ReadReg(R12)  returns 0x080074B9 (0000ms, 0777ms total)
T17C8 036:795 JLINK_ReadReg(R13 (SP))  returns 0x200018E0 (0000ms, 0777ms total)
T17C8 036:795 JLINK_ReadReg(R14)  returns 0x08005081 (0000ms, 0777ms total)
T17C8 036:795 JLINK_ReadReg(R15 (PC))  returns 0x08005012 (0000ms, 0777ms total)
T17C8 036:795 JLINK_ReadReg(XPSR)  returns 0x61000000 (0000ms, 0777ms total)
T17C8 036:795 JLINK_ReadReg(MSP)  returns 0x200018E0 (0000ms, 0777ms total)
T17C8 036:795 JLINK_ReadReg(PSP)  returns 0x200006D0 (0000ms, 0777ms total)
T17C8 036:795 JLINK_ReadReg(CFBP)  returns 0x00000001 (0000ms, 0777ms total)
T17D8 036:795 JLINK_ReadMem (0x200018E4, 0x0004 Bytes, ...) -- Read from C cache (4 bytes @ 0x200018E4) - Data: 05 02 00 08  returns 0x00 (0000ms, 0777ms total)
T17D8 036:795 JLINK_ReadMem (0x200018EC, 0x0004 Bytes, ...) -- Read from C cache (4 bytes @ 0x200018EC) - Data: 31 02 00 08  returns 0x00 (0000ms, 0777ms total)
T17D8 036:795 JLINK_ReadMem (0x200018E8, 0x0004 Bytes, ...) -- Read from C cache (4 bytes @ 0x200018E8) - Data: 3C E2 00 08  returns 0x00 (0000ms, 0777ms total)
T17D8 036:795 JLINK_ReadMem (0x200018F4, 0x0004 Bytes, ...) -- Read from C cache (4 bytes @ 0x200018F4) - Data: A1 D0 00 08  returns 0x00 (0000ms, 0777ms total)
T17D8 036:795 JLINK_ReadMem (0x200018D0, 0x0004 Bytes, ...) -- Read from C cache (4 bytes @ 0x200018D0) - Data: 14 52 00 08  returns 0x00 (0000ms, 0777ms total)
T17D8 036:795 JLINK_ReadMem (0x08005214, 0x0020 Bytes, ...) -- CPU_ReadMem(64 bytes @ 0x08005200) -- Updating C cache (64 bytes @ 0x08005200) -- Read from C cache (32 bytes @ 0x08005214) - Data: 0A 20 5C 20 7C 20 2F 0A 00 00 00 00 2D 20 52 54 ...  returns 0x00 (0002ms, 0779ms total)
T17D8 036:797 JLINK_ReadMem (0x200006D4, 0x0020 Bytes, ...) -- CPU_ReadMem(64 bytes @ 0x200006C0) -- Updating C cache (64 bytes @ 0x200006C0) -- Read from C cache (32 bytes @ 0x200006D4) - Data: 0A 20 5C 20 7C 20 2F 0A 00 00 00 00 00 00 00 00 ...  returns 0x00 (0001ms, 0780ms total)
T17D8 036:798 JLINK_ReadMem (0x00000000, 0x0002 Bytes, ...) -- CPU_ReadMem(4 bytes @ 0x00000004) -- CPU_ReadMem(64 bytes @ 0x08000000) -- Updating C cache (64 bytes @ 0x08000000) -- Read from C cache (2 bytes @ 0x08000000) - Data: F8 18  returns 0x00 (0002ms, 0782ms total)
T17D8 036:802 JLINK_ReadMemU32(0xE0001004, 0x0001 Items, ...) - Data: 2C 83 01 00  returns 0x01 (0001ms, 0783ms total)
T17D8 036:803 JLINK_ReadMem (0x40013800, 0x0018 Bytes, ...) -- CPU_ReadMem(24 bytes @ 0x40013800) - Data: C0 00 00 00 00 00 00 00 71 02 00 00 0C 20 00 00 ...  returns 0x00 (0001ms, 0784ms total)
T17D8 036:804 JLINK_ReadMem (0x40013818, 0x0004 Bytes, ...) -- CPU_ReadMem(4 bytes @ 0x40013818) - Data: 00 00 00 00  returns 0x00 (0001ms, 0785ms total)
T17D8 036:808 JLINK_ReadMem (0x0800500C, 0x003C Bytes, ...) -- CPU_ReadMem(64 bytes @ 0x08005000) -- Updating C cache (64 bytes @ 0x08005000) -- Read from C cache (60 bytes @ 0x0800500C) - Data: 0D B0 BD E8 F0 8F 0F B4 38 B5 05 A8 00 90 7F 21 ...  returns 0x00 (0001ms, 0786ms total)
T17C8 038:469 JLINK_Step() -- Read from C cache (2 bytes @ 0x08005012) -- CPU_WriteMem(16 bytes @ 0x200018D0) -- Simulated  returns 0x00 (0002ms, 0788ms total)
T17C8 038:471 JLINK_ReadReg(R15 (PC))  returns 0x08005014 (0000ms, 0788ms total)
T17C8 038:471 JLINK_ReadReg(XPSR)  returns 0x61000000 (0000ms, 0788ms total)
T17C8 038:471 JLINK_Step() -- Read from C cache (2 bytes @ 0x08005014) -- CPU_WriteMem(16 bytes @ 0x200018C0) -- Simulated  returns 0x00 (0001ms, 0789ms total)
T17C8 038:472 JLINK_ReadReg(R15 (PC))  returns 0x08005016 (0000ms, 0789ms total)
T17C8 038:472 JLINK_ReadReg(XPSR)  returns 0x61000000 (0000ms, 0789ms total)
T17C8 038:472 JLINK_ReadReg(R0)  returns 0x08005220 (0000ms, 0789ms total)
T17C8 038:472 JLINK_ReadReg(R1)  returns 0x0000000A (0000ms, 0789ms total)
T17C8 038:472 JLINK_ReadReg(R2)  returns 0x0800054B (0000ms, 0789ms total)
T17C8 038:472 JLINK_ReadReg(R3)  returns 0x00000000 (0000ms, 0789ms total)
T17C8 038:472 JLINK_ReadReg(R4)  returns 0x0800E23C (0000ms, 0789ms total)
T17C8 038:472 JLINK_ReadReg(R5)  returns 0x0800E23C (0000ms, 0789ms total)
T17C8 038:472 JLINK_ReadReg(R6)  returns 0xDEADBEEF (0000ms, 0789ms total)
T17C8 038:472 JLINK_ReadReg(R7)  returns 0xDEADBEEF (0000ms, 0789ms total)
T17C8 038:472 JLINK_ReadReg(R8)  returns 0xDEADBEEF (0000ms, 0789ms total)
T17C8 038:472 JLINK_ReadReg(R9)  returns 0xDEADBEEF (0000ms, 0789ms total)
T17C8 038:472 JLINK_ReadReg(R10)  returns 0xDEADBEEF (0000ms, 0789ms total)
T17C8 038:472 JLINK_ReadReg(R11)  returns 0xDEADBEEF (0000ms, 0789ms total)
T17C8 038:472 JLINK_ReadReg(R12)  returns 0x080074B9 (0000ms, 0789ms total)
T17C8 038:472 JLINK_ReadReg(R13 (SP))  returns 0x200018C0 (0000ms, 0789ms total)
T17C8 038:472 JLINK_ReadReg(R14)  returns 0x08005081 (0000ms, 0789ms total)
T17C8 038:472 JLINK_ReadReg(R15 (PC))  returns 0x08005016 (0000ms, 0789ms total)
T17C8 038:472 JLINK_ReadReg(XPSR)  returns 0x61000000 (0000ms, 0789ms total)
T17C8 038:472 JLINK_ReadReg(MSP)  returns 0x200018C0 (0000ms, 0789ms total)
T17C8 038:472 JLINK_ReadReg(PSP)  returns 0x200006D0 (0000ms, 0789ms total)
T17C8 038:472 JLINK_ReadReg(CFBP)  returns 0x00000001 (0000ms, 0789ms total)
T17D8 038:472 JLINK_ReadMem (0x200018CC, 0x0004 Bytes, ...) -- CPU_ReadMem(64 bytes @ 0x200018C0) -- Updating C cache (64 bytes @ 0x200018C0) -- Read from C cache (4 bytes @ 0x200018CC) - Data: 81 50 00 08  returns 0x00 (0002ms, 0791ms total)
T17D8 038:474 JLINK_ReadMem (0x200018C4, 0x0004 Bytes, ...) -- Read from C cache (4 bytes @ 0x200018C4) - Data: 3C E2 00 08  returns 0x00 (0000ms, 0791ms total)
T17D8 038:474 JLINK_ReadMem (0x200018C8, 0x0004 Bytes, ...) -- Read from C cache (4 bytes @ 0x200018C8) - Data: 3C E2 00 08  returns 0x00 (0000ms, 0791ms total)
T17D8 038:474 JLINK_ReadMem (0x200018E4, 0x0004 Bytes, ...) -- Read from C cache (4 bytes @ 0x200018E4) - Data: 05 02 00 08  returns 0x00 (0000ms, 0791ms total)
T17D8 038:474 JLINK_ReadMem (0x200018EC, 0x0004 Bytes, ...) -- Read from C cache (4 bytes @ 0x200018EC) - Data: 31 02 00 08  returns 0x00 (0000ms, 0791ms total)
T17D8 038:474 JLINK_ReadMem (0x200018E8, 0x0004 Bytes, ...) -- Read from C cache (4 bytes @ 0x200018E8) - Data: 3C E2 00 08  returns 0x00 (0000ms, 0791ms total)
T17D8 038:474 JLINK_ReadMem (0x200018F4, 0x0004 Bytes, ...) -- Read from C cache (4 bytes @ 0x200018F4) - Data: A1 D0 00 08  returns 0x00 (0000ms, 0791ms total)
T17D8 038:474 JLINK_ReadMem (0x200018D0, 0x0004 Bytes, ...) -- Read from C cache (4 bytes @ 0x200018D0) - Data: 20 52 00 08  returns 0x00 (0000ms, 0791ms total)
T17D8 038:474 JLINK_ReadMem (0x08005220, 0x0020 Bytes, ...) -- Read from C cache (32 bytes @ 0x08005220) - Data: 2D 20 52 54 20 2D 20 20 20 20 20 54 68 72 65 61 ...  returns 0x00 (0000ms, 0791ms total)
T17D8 038:474 JLINK_ReadMem (0x200006D4, 0x0020 Bytes, ...) -- Read from C cache (32 bytes @ 0x200006D4) - Data: 0A 20 5C 20 7C 20 2F 0A 00 00 00 00 00 00 00 00 ...  returns 0x00 (0000ms, 0791ms total)
T17D8 038:474 JLINK_ReadMem (0x00000000, 0x0002 Bytes, ...) -- Read from C cache (2 bytes @ 0x08000000) - Data: F8 18  returns 0x00 (0000ms, 0791ms total)
T17D8 038:474 JLINK_ReadMemU32(0xE0001004, 0x0001 Items, ...) - Data: 2C 83 01 00  returns 0x01 (0000ms, 0791ms total)
T17D8 038:475 JLINK_ReadMem (0x40013800, 0x0018 Bytes, ...) -- CPU_ReadMem(24 bytes @ 0x40013800) - Data: C0 00 00 00 00 00 00 00 71 02 00 00 0C 20 00 00 ...  returns 0x00 (0001ms, 0792ms total)
T17D8 038:476 JLINK_ReadMem (0x40013818, 0x0004 Bytes, ...) -- CPU_ReadMem(4 bytes @ 0x40013818) - Data: 00 00 00 00  returns 0x00 (0001ms, 0793ms total)
T17D8 038:480 JLINK_ReadMem (0x08005012, 0x0002 Bytes, ...) -- Read from C cache (2 bytes @ 0x08005012) - Data: 0F B4  returns 0x00 (0000ms, 0793ms total)
T17D8 038:480 JLINK_ReadMem (0x08005014, 0x003C Bytes, ...) -- Read from C cache (60 bytes @ 0x08005014) - Data: 38 B5 05 A8 00 90 7F 21 7B 48 00 9B 04 9A FF F7 ...  returns 0x00 (0000ms, 0793ms total)
T17C8 038:693 JLINK_Step() -- Read from C cache (2 bytes @ 0x08005016) -- Simulated  returns 0x00 (0000ms, 0793ms total)
T17C8 038:693 JLINK_ReadReg(R15 (PC))  returns 0x08005018 (0000ms, 0793ms total)
T17C8 038:693 JLINK_ReadReg(XPSR)  returns 0x61000000 (0000ms, 0793ms total)
T17C8 038:693 JLINK_Step() -- Read from C cache (2 bytes @ 0x08005018) -- CPU_WriteMem(4 bytes @ 0x200018C0) -- Simulated  returns 0x00 (0001ms, 0794ms total)
T17C8 038:694 JLINK_ReadReg(R15 (PC))  returns 0x0800501A (0000ms, 0794ms total)
T17C8 038:694 JLINK_ReadReg(XPSR)  returns 0x61000000 (0000ms, 0794ms total)
T17C8 038:694 JLINK_ReadReg(R0)  returns 0x200018D4 (0000ms, 0794ms total)
T17C8 038:694 JLINK_ReadReg(R1)  returns 0x0000000A (0000ms, 0794ms total)
T17C8 038:694 JLINK_ReadReg(R2)  returns 0x0800054B (0000ms, 0794ms total)
T17C8 038:694 JLINK_ReadReg(R3)  returns 0x00000000 (0000ms, 0794ms total)
T17C8 038:694 JLINK_ReadReg(R4)  returns 0x0800E23C (0000ms, 0794ms total)
T17C8 038:694 JLINK_ReadReg(R5)  returns 0x0800E23C (0000ms, 0794ms total)
T17C8 038:694 JLINK_ReadReg(R6)  returns 0xDEADBEEF (0000ms, 0794ms total)
T17C8 038:694 JLINK_ReadReg(R7)  returns 0xDEADBEEF (0000ms, 0794ms total)
T17C8 038:694 JLINK_ReadReg(R8)  returns 0xDEADBEEF (0000ms, 0794ms total)
T17C8 038:694 JLINK_ReadReg(R9)  returns 0xDEADBEEF (0000ms, 0794ms total)
T17C8 038:694 JLINK_ReadReg(R10)  returns 0xDEADBEEF (0000ms, 0794ms total)
T17C8 038:694 JLINK_ReadReg(R11)  returns 0xDEADBEEF (0000ms, 0794ms total)
T17C8 038:694 JLINK_ReadReg(R12)  returns 0x080074B9 (0000ms, 0794ms total)
T17C8 038:694 JLINK_ReadReg(R13 (SP))  returns 0x200018C0 (0000ms, 0794ms total)
T17C8 038:694 JLINK_ReadReg(R14)  returns 0x08005081 (0000ms, 0794ms total)
T17C8 038:694 JLINK_ReadReg(R15 (PC))  returns 0x0800501A (0000ms, 0794ms total)
T17C8 038:694 JLINK_ReadReg(XPSR)  returns 0x61000000 (0000ms, 0794ms total)
T17C8 038:694 JLINK_ReadReg(MSP)  returns 0x200018C0 (0000ms, 0794ms total)
T17C8 038:694 JLINK_ReadReg(PSP)  returns 0x200006D0 (0000ms, 0794ms total)
T17C8 038:694 JLINK_ReadReg(CFBP)  returns 0x00000001 (0000ms, 0794ms total)
T17D8 038:695 JLINK_ReadMem (0x200018CC, 0x0004 Bytes, ...) -- CPU_ReadMem(64 bytes @ 0x200018C0) -- Updating C cache (64 bytes @ 0x200018C0) -- Read from C cache (4 bytes @ 0x200018CC) - Data: 81 50 00 08  returns 0x00 (0001ms, 0795ms total)
T17D8 038:696 JLINK_ReadMem (0x200018C4, 0x0004 Bytes, ...) -- Read from C cache (4 bytes @ 0x200018C4) - Data: 3C E2 00 08  returns 0x00 (0000ms, 0795ms total)
T17D8 038:696 JLINK_ReadMem (0x200018C8, 0x0004 Bytes, ...) -- Read from C cache (4 bytes @ 0x200018C8) - Data: 3C E2 00 08  returns 0x00 (0000ms, 0795ms total)
T17D8 038:696 JLINK_ReadMem (0x200018E4, 0x0004 Bytes, ...) -- Read from C cache (4 bytes @ 0x200018E4) - Data: 05 02 00 08  returns 0x00 (0000ms, 0795ms total)
T17D8 038:696 JLINK_ReadMem (0x200018EC, 0x0004 Bytes, ...) -- Read from C cache (4 bytes @ 0x200018EC) - Data: 31 02 00 08  returns 0x00 (0000ms, 0795ms total)
T17D8 038:696 JLINK_ReadMem (0x200018E8, 0x0004 Bytes, ...) -- Read from C cache (4 bytes @ 0x200018E8) - Data: 3C E2 00 08  returns 0x00 (0000ms, 0795ms total)
T17D8 038:696 JLINK_ReadMem (0x200018F4, 0x0004 Bytes, ...) -- Read from C cache (4 bytes @ 0x200018F4) - Data: A1 D0 00 08  returns 0x00 (0000ms, 0795ms total)
T17D8 038:697 JLINK_ReadMem (0x200018D0, 0x0004 Bytes, ...) -- Read from C cache (4 bytes @ 0x200018D0) - Data: 20 52 00 08  returns 0x00 (0000ms, 0795ms total)
T17D8 038:697 JLINK_ReadMem (0x08005220, 0x0020 Bytes, ...) -- Read from C cache (32 bytes @ 0x08005220) - Data: 2D 20 52 54 20 2D 20 20 20 20 20 54 68 72 65 61 ...  returns 0x00 (0000ms, 0795ms total)
T17D8 038:697 JLINK_ReadMem (0x200006D4, 0x0020 Bytes, ...) -- Read from C cache (32 bytes @ 0x200006D4) - Data: 0A 20 5C 20 7C 20 2F 0A 00 00 00 00 00 00 00 00 ...  returns 0x00 (0000ms, 0795ms total)
T17D8 038:697 JLINK_ReadMem (0x00000000, 0x0002 Bytes, ...) -- CPU_ReadMem(4 bytes @ 0x00000004) -- Read from C cache (2 bytes @ 0x08000000) - Data: F8 18  returns 0x00 (0000ms, 0795ms total)
T17D8 038:697 JLINK_ReadMemU32(0xE0001004, 0x0001 Items, ...) - Data: 2C 83 01 00  returns 0x01 (0000ms, 0795ms total)
T17D8 038:697 JLINK_ReadMem (0x40013800, 0x0018 Bytes, ...) -- CPU_ReadMem(24 bytes @ 0x40013800) - Data: C0 00 00 00 00 00 00 00 71 02 00 00 0C 20 00 00 ...  returns 0x00 (0001ms, 0796ms total)
T17D8 038:698 JLINK_ReadMem (0x40013818, 0x0004 Bytes, ...) -- CPU_ReadMem(4 bytes @ 0x40013818) - Data: 00 00 00 00  returns 0x00 (0001ms, 0797ms total)
T17D8 038:704 JLINK_ReadMem (0x08005016, 0x0002 Bytes, ...) -- Read from C cache (2 bytes @ 0x08005016) - Data: 05 A8  returns 0x00 (0000ms, 0797ms total)
T17D8 038:704 JLINK_ReadMem (0x08005018, 0x003C Bytes, ...) -- Read from C cache (60 bytes @ 0x08005018) - Data: 00 90 7F 21 7B 48 00 9B 04 9A FF F7 66 FE 04 46 ...  returns 0x00 (0000ms, 0797ms total)
T17C8 040:325 JLINK_Step() -- Read from C cache (2 bytes @ 0x0800501A) -- Simulated  returns 0x00 (0001ms, 0798ms total)
T17C8 040:326 JLINK_ReadReg(R15 (PC))  returns 0x0800501C (0000ms, 0798ms total)
T17C8 040:326 JLINK_ReadReg(XPSR)  returns 0x21000000 (0000ms, 0798ms total)
T17C8 040:326 JLINK_Step() -- Read from C cache (2 bytes @ 0x0800501C) -- Read from C cache (4 bytes @ 0x0800520C) -- Simulated  returns 0x00 (0000ms, 0798ms total)
T17C8 040:326 JLINK_ReadReg(R15 (PC))  returns 0x0800501E (0001ms, 0799ms total)
T17C8 040:327 JLINK_ReadReg(XPSR)  returns 0x21000000 (0000ms, 0799ms total)
T17C8 040:327 JLINK_Step() -- Read from C cache (2 bytes @ 0x0800501E) -- Read from C cache (4 bytes @ 0x200018C0) -- Simulated  returns 0x00 (0000ms, 0799ms total)
T17C8 040:327 JLINK_ReadReg(R15 (PC))  returns 0x08005020 (0000ms, 0799ms total)
T17C8 040:327 JLINK_ReadReg(XPSR)  returns 0x21000000 (0000ms, 0799ms total)
T17C8 040:327 JLINK_Step() -- Read from C cache (2 bytes @ 0x08005020) -- Read from C cache (4 bytes @ 0x200018D0) -- Simulated  returns 0x00 (0000ms, 0799ms total)
T17C8 040:327 JLINK_ReadReg(R15 (PC))  returns 0x08005022 (0000ms, 0799ms total)
T17C8 040:327 JLINK_ReadReg(XPSR)  returns 0x21000000 (0000ms, 0799ms total)
T17C8 040:327 JLINK_SetBPEx(Addr = 0x08005026, Type = 0xFFFFFFF2)  returns 0x00000004 (0000ms, 0799ms total)
T17C8 040:327 JLINK_SetBPEx(Addr = 0x0800507A, Type = 0xFFFFFFF2)  returns 0x00000005 (0000ms, 0799ms total)
T17C8 040:327 JLINK_Go() -- CPU_WriteMem(4 bytes @ 0xE0002000) -- CPU_WriteMem(4 bytes @ 0xE0002000) -- CPU_ReadMem(4 bytes @ 0xE0001000) -- CPU_WriteMem(4 bytes @ 0xE0002008) -- CPU_WriteMem(4 bytes @ 0xE000200C) -- CPU_WriteMem(4 bytes @ 0xE0001004) (0007ms, 0806ms total)
T17C8 040:434 JLINK_IsHalted()  returns TRUE (0004ms, 0810ms total)
T17C8 040:438 JLINK_Halt()  returns 0x00 (0000ms, 0806ms total)
T17C8 040:438 JLINK_IsHalted()  returns TRUE (0000ms, 0806ms total)
T17C8 040:438 JLINK_IsHalted()  returns TRUE (0000ms, 0806ms total)
T17C8 040:438 JLINK_IsHalted()  returns TRUE (0000ms, 0806ms total)
T17C8 040:438 JLINK_ReadReg(R15 (PC))  returns 0x08005026 (0000ms, 0806ms total)
T17C8 040:438 JLINK_ReadReg(XPSR)  returns 0x81000000 (0000ms, 0806ms total)
T17C8 040:438 JLINK_ClrBPEx(BPHandle = 0x00000004)  returns 0x00 (0000ms, 0806ms total)
T17C8 040:438 JLINK_ClrBPEx(BPHandle = 0x00000005)  returns 0x00 (0000ms, 0806ms total)
T17C8 040:438 JLINK_ReadMemU32(0xE000ED30, 0x0001 Items, ...) -- CPU_ReadMem(4 bytes @ 0xE000ED30) - Data: 03 00 00 00  returns 0x01 (0001ms, 0807ms total)
T17C8 040:439 JLINK_ReadMemU32(0xE0001028, 0x0001 Items, ...) -- CPU_ReadMem(4 bytes @ 0xE0001028) - Data: 00 00 00 00  returns 0x01 (0001ms, 0808ms total)
T17C8 040:440 JLINK_ReadMemU32(0xE0001038, 0x0001 Items, ...) -- CPU_ReadMem(4 bytes @ 0xE0001038) - Data: 00 02 00 00  returns 0x01 (0001ms, 0809ms total)
T17C8 040:441 JLINK_ReadMemU32(0xE0001048, 0x0001 Items, ...) -- CPU_ReadMem(4 bytes @ 0xE0001048) - Data: 00 00 00 00  returns 0x01 (0001ms, 0810ms total)
T17C8 040:442 JLINK_ReadMemU32(0xE0001058, 0x0001 Items, ...) -- CPU_ReadMem(4 bytes @ 0xE0001058) - Data: 00 00 00 00  returns 0x01 (0001ms, 0811ms total)
T17C8 040:443 JLINK_ReadReg(R0)  returns 0x00000023 (0000ms, 0811ms total)
T17C8 040:443 JLINK_ReadReg(R1)  returns 0x0000007F (0000ms, 0811ms total)
T17C8 040:443 JLINK_ReadReg(R2)  returns 0x08005220 (0000ms, 0811ms total)
T17C8 040:443 JLINK_ReadReg(R3)  returns 0x200018D4 (0000ms, 0811ms total)
T17C8 040:443 JLINK_ReadReg(R4)  returns 0x0800E23C (0000ms, 0811ms total)
T17C8 040:443 JLINK_ReadReg(R5)  returns 0x0800E23C (0000ms, 0811ms total)
T17C8 040:443 JLINK_ReadReg(R6)  returns 0xDEADBEEF (0000ms, 0811ms total)
T17C8 040:443 JLINK_ReadReg(R7)  returns 0xDEADBEEF (0000ms, 0811ms total)
T17C8 040:443 JLINK_ReadReg(R8)  returns 0xDEADBEEF (0000ms, 0811ms total)
T17C8 040:443 JLINK_ReadReg(R9)  returns 0xDEADBEEF (0000ms, 0811ms total)
T17C8 040:443 JLINK_ReadReg(R10)  returns 0xDEADBEEF (0000ms, 0811ms total)
T17C8 040:443 JLINK_ReadReg(R11)  returns 0xDEADBEEF (0000ms, 0811ms total)
T17C8 040:443 JLINK_ReadReg(R12)  returns 0x080074B9 (0000ms, 0811ms total)
T17C8 040:443 JLINK_ReadReg(R13 (SP))  returns 0x200018C0 (0000ms, 0811ms total)
T17C8 040:443 JLINK_ReadReg(R14)  returns 0x08005027 (0000ms, 0811ms total)
T17C8 040:443 JLINK_ReadReg(R15 (PC))  returns 0x08005026 (0000ms, 0811ms total)
T17C8 040:443 JLINK_ReadReg(XPSR)  returns 0x81000000 (0000ms, 0811ms total)
T17C8 040:443 JLINK_ReadReg(MSP)  returns 0x200018C0 (0000ms, 0811ms total)
T17C8 040:443 JLINK_ReadReg(PSP)  returns 0x200006D0 (0000ms, 0811ms total)
T17C8 040:443 JLINK_ReadReg(CFBP)  returns 0x00000001 (0000ms, 0811ms total)
T17D8 040:444 JLINK_ReadMem (0x200018CC, 0x0004 Bytes, ...) -- CPU_ReadMem(64 bytes @ 0x200018C0) -- Updating C cache (64 bytes @ 0x200018C0) -- Read from C cache (4 bytes @ 0x200018CC) - Data: 81 50 00 08  returns 0x00 (0001ms, 0812ms total)
T17D8 040:445 JLINK_ReadMem (0x200018C4, 0x0004 Bytes, ...) -- Read from C cache (4 bytes @ 0x200018C4) - Data: 3C E2 00 08  returns 0x00 (0000ms, 0812ms total)
T17D8 040:445 JLINK_ReadMem (0x200018C8, 0x0004 Bytes, ...) -- Read from C cache (4 bytes @ 0x200018C8) - Data: 3C E2 00 08  returns 0x00 (0000ms, 0812ms total)
T17D8 040:445 JLINK_ReadMem (0x200018E4, 0x0004 Bytes, ...) -- Read from C cache (4 bytes @ 0x200018E4) - Data: 05 02 00 08  returns 0x00 (0000ms, 0812ms total)
T17D8 040:445 JLINK_ReadMem (0x200018EC, 0x0004 Bytes, ...) -- Read from C cache (4 bytes @ 0x200018EC) - Data: 31 02 00 08  returns 0x00 (0000ms, 0812ms total)
T17D8 040:445 JLINK_ReadMem (0x200018E8, 0x0004 Bytes, ...) -- Read from C cache (4 bytes @ 0x200018E8) - Data: 3C E2 00 08  returns 0x00 (0000ms, 0812ms total)
T17D8 040:445 JLINK_ReadMem (0x200018F4, 0x0004 Bytes, ...) -- Read from C cache (4 bytes @ 0x200018F4) - Data: A1 D0 00 08  returns 0x00 (0000ms, 0812ms total)
T17D8 040:445 JLINK_ReadMem (0x200018D0, 0x0004 Bytes, ...) -- Read from C cache (4 bytes @ 0x200018D0) - Data: 20 52 00 08  returns 0x00 (0000ms, 0812ms total)
T17D8 040:445 JLINK_ReadMem (0x08005220, 0x0020 Bytes, ...) -- CPU_ReadMem(64 bytes @ 0x08005200) -- Updating C cache (64 bytes @ 0x08005200) -- Read from C cache (32 bytes @ 0x08005220) - Data: 2D 20 52 54 20 2D 20 20 20 20 20 54 68 72 65 61 ...  returns 0x00 (0001ms, 0813ms total)
T17D8 040:446 JLINK_ReadMem (0x200006D4, 0x0020 Bytes, ...) -- CPU_ReadMem(64 bytes @ 0x200006C0) -- Updating C cache (64 bytes @ 0x200006C0) -- Read from C cache (32 bytes @ 0x200006D4) - Data: 2D 20 52 54 20 2D 20 20 20 20 20 54 68 72 65 61 ...  returns 0x00 (0001ms, 0814ms total)
T17D8 040:447 JLINK_ReadMem (0x00000000, 0x0002 Bytes, ...) -- CPU_ReadMem(4 bytes @ 0x00000004) -- CPU_ReadMem(64 bytes @ 0x08000000) -- Updating C cache (64 bytes @ 0x08000000) -- Read from C cache (2 bytes @ 0x08000000) - Data: F8 18  returns 0x00 (0002ms, 0816ms total)
T17D8 040:449 JLINK_ReadMemU32(0xE0001004, 0x0001 Items, ...) -- CPU_ReadMem(4 bytes @ 0xE0001004) - Data: B1 89 01 00  returns 0x01 (0001ms, 0817ms total)
T17D8 040:450 JLINK_ReadMem (0x40013800, 0x0018 Bytes, ...) -- CPU_ReadMem(24 bytes @ 0x40013800) - Data: C0 00 00 00 00 00 00 00 71 02 00 00 0C 20 00 00 ...  returns 0x00 (0001ms, 0818ms total)
T17D8 040:451 JLINK_ReadMem (0x40013818, 0x0004 Bytes, ...) -- CPU_ReadMem(4 bytes @ 0x40013818) - Data: 00 00 00 00  returns 0x00 (0001ms, 0819ms total)
T17D8 040:454 JLINK_ReadMem (0x08005026, 0x0002 Bytes, ...) -- CPU_ReadMem(64 bytes @ 0x08005000) -- Updating C cache (64 bytes @ 0x08005000) -- Read from C cache (2 bytes @ 0x08005026) - Data: 04 46  returns 0x00 (0001ms, 0820ms total)
T17D8 040:455 JLINK_ReadMem (0x08005028, 0x003C Bytes, ...) -- CPU_ReadMem(64 bytes @ 0x08005040) -- Updating C cache (64 bytes @ 0x08005040) -- Read from C cache (60 bytes @ 0x08005028) - Data: 7F 2C 00 D9 7F 24 78 48 00 68 18 B9 75 48 FF F7 ...  returns 0x00 (0001ms, 0821ms total)
T17C8 041:501 JLINK_Step() -- Read from C cache (2 bytes @ 0x08005026) -- Simulated  returns 0x00 (0001ms, 0822ms total)
T17C8 041:502 JLINK_ReadReg(R15 (PC))  returns 0x08005028 (0000ms, 0822ms total)
T17C8 041:502 JLINK_ReadReg(XPSR)  returns 0x81000000 (0000ms, 0822ms total)
T17C8 041:502 JLINK_ReadReg(R0)  returns 0x00000023 (0000ms, 0822ms total)
T17C8 041:502 JLINK_ReadReg(R1)  returns 0x0000007F (0000ms, 0822ms total)
T17C8 041:502 JLINK_ReadReg(R2)  returns 0x08005220 (0000ms, 0822ms total)
T17C8 041:502 JLINK_ReadReg(R3)  returns 0x200018D4 (0000ms, 0822ms total)
T17C8 041:502 JLINK_ReadReg(R4)  returns 0x00000023 (0000ms, 0822ms total)
T17C8 041:502 JLINK_ReadReg(R5)  returns 0x0800E23C (0000ms, 0822ms total)
T17C8 041:502 JLINK_ReadReg(R6)  returns 0xDEADBEEF (0000ms, 0822ms total)
T17C8 041:502 JLINK_ReadReg(R7)  returns 0xDEADBEEF (0000ms, 0822ms total)
T17C8 041:502 JLINK_ReadReg(R8)  returns 0xDEADBEEF (0000ms, 0822ms total)
T17C8 041:502 JLINK_ReadReg(R9)  returns 0xDEADBEEF (0000ms, 0822ms total)
T17C8 041:502 JLINK_ReadReg(R10)  returns 0xDEADBEEF (0000ms, 0822ms total)
T17C8 041:502 JLINK_ReadReg(R11)  returns 0xDEADBEEF (0000ms, 0822ms total)
T17C8 041:502 JLINK_ReadReg(R12)  returns 0x080074B9 (0000ms, 0822ms total)
T17C8 041:502 JLINK_ReadReg(R13 (SP))  returns 0x200018C0 (0000ms, 0822ms total)
T17C8 041:502 JLINK_ReadReg(R14)  returns 0x08005027 (0000ms, 0822ms total)
T17C8 041:502 JLINK_ReadReg(R15 (PC))  returns 0x08005028 (0000ms, 0822ms total)
T17C8 041:502 JLINK_ReadReg(XPSR)  returns 0x81000000 (0000ms, 0822ms total)
T17C8 041:502 JLINK_ReadReg(MSP)  returns 0x200018C0 (0000ms, 0822ms total)
T17C8 041:502 JLINK_ReadReg(PSP)  returns 0x200006D0 (0000ms, 0822ms total)
T17C8 041:502 JLINK_ReadReg(CFBP)  returns 0x00000001 (0000ms, 0822ms total)
T17D8 041:503 JLINK_ReadMem (0x200018CC, 0x0004 Bytes, ...) -- Read from C cache (4 bytes @ 0x200018CC) - Data: 81 50 00 08  returns 0x00 (0000ms, 0822ms total)
T17D8 041:503 JLINK_ReadMem (0x200018C4, 0x0004 Bytes, ...) -- Read from C cache (4 bytes @ 0x200018C4) - Data: 3C E2 00 08  returns 0x00 (0000ms, 0822ms total)
T17D8 041:503 JLINK_ReadMem (0x200018C8, 0x0004 Bytes, ...) -- Read from C cache (4 bytes @ 0x200018C8) - Data: 3C E2 00 08  returns 0x00 (0000ms, 0822ms total)
T17D8 041:503 JLINK_ReadMem (0x200018E4, 0x0004 Bytes, ...) -- Read from C cache (4 bytes @ 0x200018E4) - Data: 05 02 00 08  returns 0x00 (0000ms, 0822ms total)
T17D8 041:503 JLINK_ReadMem (0x200018EC, 0x0004 Bytes, ...) -- Read from C cache (4 bytes @ 0x200018EC) - Data: 31 02 00 08  returns 0x00 (0000ms, 0822ms total)
T17D8 041:503 JLINK_ReadMem (0x200018E8, 0x0004 Bytes, ...) -- Read from C cache (4 bytes @ 0x200018E8) - Data: 3C E2 00 08  returns 0x00 (0000ms, 0822ms total)
T17D8 041:503 JLINK_ReadMem (0x200018F4, 0x0004 Bytes, ...) -- Read from C cache (4 bytes @ 0x200018F4) - Data: A1 D0 00 08  returns 0x00 (0000ms, 0822ms total)
T17D8 041:503 JLINK_ReadMem (0x200018D0, 0x0004 Bytes, ...) -- Read from C cache (4 bytes @ 0x200018D0) - Data: 20 52 00 08  returns 0x00 (0000ms, 0822ms total)
T17D8 041:503 JLINK_ReadMem (0x08005220, 0x0020 Bytes, ...) -- Read from C cache (32 bytes @ 0x08005220) - Data: 2D 20 52 54 20 2D 20 20 20 20 20 54 68 72 65 61 ...  returns 0x00 (0000ms, 0822ms total)
T17D8 041:503 JLINK_ReadMem (0x200006D4, 0x0020 Bytes, ...) -- Read from C cache (32 bytes @ 0x200006D4) - Data: 2D 20 52 54 20 2D 20 20 20 20 20 54 68 72 65 61 ...  returns 0x00 (0000ms, 0822ms total)
T17D8 041:505 JLINK_ReadMem (0x00000000, 0x0002 Bytes, ...) -- Read from C cache (2 bytes @ 0x08000000) - Data: F8 18  returns 0x00 (0000ms, 0822ms total)
T17D8 041:505 JLINK_ReadMemU32(0xE0001004, 0x0001 Items, ...) - Data: B1 89 01 00  returns 0x01 (0000ms, 0822ms total)
T17D8 041:505 JLINK_ReadMem (0x40013800, 0x0018 Bytes, ...) -- CPU_ReadMem(24 bytes @ 0x40013800) - Data: C0 00 00 00 00 00 00 00 71 02 00 00 0C 20 00 00 ...  returns 0x00 (0001ms, 0823ms total)
T17D8 041:506 JLINK_ReadMem (0x40013818, 0x0004 Bytes, ...) -- CPU_ReadMem(4 bytes @ 0x40013818) - Data: 00 00 00 00  returns 0x00 (0001ms, 0824ms total)
T17D8 041:512 JLINK_ReadMem (0x08005026, 0x0002 Bytes, ...) -- Read from C cache (2 bytes @ 0x08005026) - Data: 04 46  returns 0x00 (0000ms, 0824ms total)
T17D8 041:512 JLINK_ReadMem (0x08005028, 0x003C Bytes, ...) -- Read from C cache (60 bytes @ 0x08005028) - Data: 7F 2C 00 D9 7F 24 78 48 00 68 18 B9 75 48 FF F7 ...  returns 0x00 (0000ms, 0824ms total)
T17C8 041:852 JLINK_Step() -- Read from C cache (2 bytes @ 0x08005028) -- Simulated  returns 0x00 (0000ms, 0824ms total)
T17C8 041:852 JLINK_ReadReg(R15 (PC))  returns 0x0800502A (0000ms, 0824ms total)
T17C8 041:852 JLINK_ReadReg(XPSR)  returns 0x81000000 (0000ms, 0824ms total)
T17C8 041:852 JLINK_Step() -- Read from C cache (2 bytes @ 0x0800502A) -- Simulated  returns 0x00 (0000ms, 0824ms total)
T17C8 041:852 JLINK_ReadReg(R15 (PC))  returns 0x0800502E (0000ms, 0824ms total)
T17C8 041:852 JLINK_ReadReg(XPSR)  returns 0x81000000 (0000ms, 0824ms total)
T17C8 041:852 JLINK_ReadReg(R0)  returns 0x00000023 (0000ms, 0824ms total)
T17C8 041:852 JLINK_ReadReg(R1)  returns 0x0000007F (0001ms, 0825ms total)
T17C8 041:853 JLINK_ReadReg(R2)  returns 0x08005220 (0000ms, 0825ms total)
T17C8 041:853 JLINK_ReadReg(R3)  returns 0x200018D4 (0000ms, 0825ms total)
T17C8 041:853 JLINK_ReadReg(R4)  returns 0x00000023 (0000ms, 0825ms total)
T17C8 041:853 JLINK_ReadReg(R5)  returns 0x0800E23C (0000ms, 0825ms total)
T17C8 041:853 JLINK_ReadReg(R6)  returns 0xDEADBEEF (0000ms, 0825ms total)
T17C8 041:853 JLINK_ReadReg(R7)  returns 0xDEADBEEF (0000ms, 0825ms total)
T17C8 041:853 JLINK_ReadReg(R8)  returns 0xDEADBEEF (0000ms, 0825ms total)
T17C8 041:853 JLINK_ReadReg(R9)  returns 0xDEADBEEF (0000ms, 0825ms total)
T17C8 041:853 JLINK_ReadReg(R10)  returns 0xDEADBEEF (0000ms, 0825ms total)
T17C8 041:853 JLINK_ReadReg(R11)  returns 0xDEADBEEF (0000ms, 0825ms total)
T17C8 041:853 JLINK_ReadReg(R12)  returns 0x080074B9 (0000ms, 0825ms total)
T17C8 041:853 JLINK_ReadReg(R13 (SP))  returns 0x200018C0 (0000ms, 0825ms total)
T17C8 041:853 JLINK_ReadReg(R14)  returns 0x08005027 (0000ms, 0825ms total)
T17C8 041:853 JLINK_ReadReg(R15 (PC))  returns 0x0800502E (0000ms, 0825ms total)
T17C8 041:853 JLINK_ReadReg(XPSR)  returns 0x81000000 (0000ms, 0825ms total)
T17C8 041:853 JLINK_ReadReg(MSP)  returns 0x200018C0 (0000ms, 0825ms total)
T17C8 041:853 JLINK_ReadReg(PSP)  returns 0x200006D0 (0000ms, 0825ms total)
T17C8 041:853 JLINK_ReadReg(CFBP)  returns 0x00000001 (0000ms, 0825ms total)
T17D8 041:854 JLINK_ReadMem (0x200018CC, 0x0004 Bytes, ...) -- Read from C cache (4 bytes @ 0x200018CC) - Data: 81 50 00 08  returns 0x00 (0000ms, 0825ms total)
